 (1780495917.119188)  can0  18FFCA28   [8]  03 0D 30 75 19 FF FF FF
 (1780495917.125084)  can0  18F00328   [8]  FF FF 1E FF FF FF FF FF
 (1780495917.129504)  can0  18FEF728   [8]  FF FF FF FF 2A 02 FF FF
 (1780495917.133751)  can0  18FEFC28   [8]  FF 86 FF FF FF FF FF FF
 (1780495917.138061)  can0  18FEEE28   [8]  78 FF FF FF 20 22 FF FF
 (1780495917.142382)  can0  18FE6828   [8]  46 FF FF FF FF FF FF FF
 (1780495917.146531)  can0  18FFA128   [8]  00 00 64 00 23 50 4F 50
 (1780495917.150906)  can0  18FFAB28   [8]  00 00 00 00 00 00 00 00
 (1780495917.155096)  can0  18FEF328   [8]  88 25 E3 9B AD 9D D9 7F
 (1780495917.267255)  can0  18FEE828   [8]  FF FF FF FF FF FF FF FF
 (1780495917.271422)  can0  18F00428   [8]  92 FF FF A7 1A FF FF FF
 (1780495917.275680)  can0  18F00328   [8]  FF FF 1D FF FF FF FF FF
 (1780495917.279868)  can0  18FFA028   [8]  D2 02 21 00 00 F8 FF 02
 (1780495917.284254)  can0  18FFA128   [8]  00 00 64 00 16 50 4F 50
 (1780495917.288624)  can0  18FFA228   [8]  FF FF FF FF E1 03 DF 03
 (1780495917.292796)  can0  18FFA328   [8]  E0 29 01 00 FF FF FF FF
 (1780495917.297695)  can0  18F00428   [8]  92 FF FF 8D 1A FF FF FF
 (1780495917.456704)  can0  18FFDD28   [8]  F9 32 FF FF FF FF FF FF
 (1780495917.461163)  can0  18F00328   [8]  FF FF 1D FF FF FF FF FF
 (1780495917.465367)  can0  18FFA128   [8]  00 00 64 00 1D 50 4F 50
 (1780495917.469619)  can0  18FEF328   [8]  86 25 E3 9B AD 9D D9 7F
 (1780495917.473930)  can0  18FEE828   [8]  FF FF FF FF FF FF FF FF
 (1780495917.478194)  can0  18F00428   [8]  92 FF FF 82 1A FF FF FF
 (1780495917.482532)  can0  18F00328   [8]  FF FF 1E FF FF FF FF FF
 (1780495917.486857)  can0  18FFA028   [8]  D2 02 21 00 00 F8 FF 02
 (1780495917.491105)  can0  18FFA128   [8]  00 00 64 00 17 50 4F 50
 (1780495917.611620)  can0  18FEE828   [8]  FF FF FF FF FF FF FF FF
 (1780495917.615805)  can0  18FFA228   [8]  FF FF FF FF E1 03 DF 03
 (1780495917.620107)  can0  18FFA328   [8]  E0 29 01 00 FF FF FF FF
 (1780495917.624415)  can0  18FFA428   [8]  58 00 00 00 00 00 00 60
 (1780495917.628704)  can0  18FFA528   [8]  00 00 00 00 FF FF FF FF
 (1780495917.633269)  can0  18FFA628   [8]  00 00 00 00 00 00 00 FF
 (1780495917.637819)  can0  18FFA728   [8]  00 00 00 00 20 00 20 00
 (1780495917.642134)  can0  18FFA828   [8]  00 00 00 00 00 00 00 00
 (1780495917.646327)  can0  18FFAA28   [8]  16 00 11 FF FF FF FF FF
 (1780495917.754024)  can0  18FFCA28   [8]  03 0D 30 75 19 FF FF FF
 (1780495917.758193)  can0  18FEE828   [8]  FF FF FF FF FF FF FF FF
 (1780495917.762481)  can0  18F00428   [8]  92 FF FF 88 1A FF FF FF
 (1780495917.766797)  can0  18F00328   [8]  FF FF 1E FF FF FF FF FF
 (1780495917.771117)  can0  18FFA128   [8]  00 00 64 00 13 50 4F 50
 (1780495917.775529)  can0  18FEF328   [8]  86 25 E3 9B AD 9D D9 7F
 (1780495917.779946)  can0  18FEE828   [8]  FF FF FF FF FF FF FF FF
 (1780495917.784304)  can0  18FFD228   [8]  00 FF FF FF FF FF FF FF
 (1780495917.788586)  can0  18F00428   [8]  92 FF FF 8F 1A FF FF FF
 (1780495917.897191)  can0  18F00328   [8]  FF FF 1E FF FF FF FF FF
 (1780495917.901215)  can0  18FFA028   [8]  D2 02 21 00 00 F8 FF 02
 (1780495917.905464)  can0  18FFA128   [8]  00 00 64 00 16 50 4F 50
 (1780495917.909719)  can0  18FFA228   [8]  FF FF FF FF E1 03 DF 03
 (1780495917.914010)  can0  18FFA328   [8]  E0 29 01 00 FF FF FF FF
 (1780495917.918165)  can0  18F00428   [8]  92 FF FF 90 1A FF FF FF
 (1780495917.922444)  can0  18F00328   [8]  FF FF 1E FF FF FF FF FF
 (1780495917.926740)  can0  18FFA128   [8]  00 00 64 00 1A 50 4F 50
 (1780495917.933188)  can0  18FFDC9E   [8]  FF 0F 00 00 00 00 00 00
 (1780495918.051577)  can0  18FFCA28   [8]  03 0D 30 75 19 FF FF FF
 (1780495918.055693)  can0  18FEF328   [8]  86 25 E3 9B AD 9D D9 7F
 (1780495918.059967)  can0  18FEE828   [8]  FF FF FF FF FF FF FF FF
 (1780495918.064212)  can0  18F00428   [8]  92 FF FF 8A 1A FF FF FF
 (1780495918.068518)  can0  18F00328   [8]  FF FF 1E FF FF FF FF FF
 (1780495918.072768)  can0  18FEF728   [8]  FF FF FF FF 28 02 FF FF
 (1780495918.077137)  can0  18FEFC28   [8]  FF 86 FF FF FF FF FF FF
 (1780495918.081393)  can0  18FEEE28   [8]  78 FF FF FF 20 22 FF FF
 (1780495918.085693)  can0  18FE6828   [8]  46 FF FF FF FF FF FF FF
 (1780495918.207498)  can0  18FFCB28   [8]  0C 25 E3 9B 44 9F D9 7F
 (1780495918.218753)  can0  18FFA028   [8]  D2 02 21 00 00 F8 FF 02
 (1780495918.223050)  can0  18FFA128   [8]  00 00 64 00 12 50 4F 50
 (1780495918.227225)  can0  18FFA228   [8]  FF FF FF FF E1 03 DF 03
 (1780495918.231752)  can0  18FFA328   [8]  E0 29 01 00 FF FF FF FF
 (1780495918.236517)  can0  18FFA428   [8]  58 00 00 00 00 00 00 60
 (1780495918.241100)  can0  18FFA528   [8]  00 00 00 00 FF FF FF FF
 (1780495918.245334)  can0  18FFA628   [8]  00 00 00 00 00 00 00 FF
 (1780495918.249437)  can0  18FFA728   [8]  00 00 00 00 20 00 20 00
 (1780495918.382710)  can0  18FFCA28   [8]  03 0D 30 75 19 FF FF FF
 (1780495918.386899)  can0  18FEE828   [8]  FF FF FF FF FF FF FF FF
 (1780495918.391104)  can0  18F00428   [8]  92 FF FF 88 1A FF FF FF
 (1780495918.395332)  can0  18F00328   [8]  FF FF 1E FF FF FF FF FF
 (1780495918.399603)  can0  18FFA128   [8]  00 00 64 00 1E 50 4F 50
 (1780495918.403879)  can0  18FFCA28   [8]  03 0D 30 75 19 FF FF FF
 (1780495918.408200)  can0  18FEF328   [8]  8A 25 E3 9B A7 9D D9 7F
 (1780495918.412579)  can0  18FEE828   [8]  FF FF FF FF FF FF FF FF
 (1780495918.416835)  can0  18F00428   [8]  92 FF FF 81 1A FF FF FF
 (1780495918.533420)  can0  18F00328   [8]  FF FF 1E FF FF FF FF FF
 (1780495918.541513)  can0  18FFA028   [8]  D2 02 21 00 00 F8 FF 02
 (1780495918.545782)  can0  18FFA128   [8]  00 00 64 00 24 50 4F 50
 (1780495918.550099)  can0  18FFA228   [8]  FF FF FF FF E1 03 DF 03
 (1780495918.554394)  can0  18FFA328   [8]  E0 29 01 00 FF FF FF FF
 (1780495918.558711)  can0  18F00428   [8]  92 FF FF 88 1A FF FF FF
 (1780495918.563026)  can0  18F00328   [8]  FF FF 1E FF FF FF FF FF
 (1780495918.567262)  can0  18FFA128   [8]  00 00 64 00 20 50 4F 50
 (1780495918.683421)  can0  18FFCA28   [8]  03 0D 30 75 19 FF FF FF
 (1780495918.687584)  can0  18FEF328   [8]  91 25 E3 9B A4 9D D9 7F
 (1780495918.691990)  can0  18FEE828   [8]  FF FF FF FF FF FF FF FF
 (1780495918.696337)  can0  18F00428   [8]  92 FF FF 9C 1A FF FF FF
 (1780495918.700471)  can0  18F00328   [8]  FF FF 1D FF FF FF FF FF
 (1780495918.704779)  can0  18FFA028   [8]  D2 02 21 00 00 F8 FF 02
 (1780495918.709076)  can0  18FFA128   [8]  00 00 64 00 24 50 4F 50
 (1780495918.713452)  can0  18FFA228   [8]  FF FF FF FF E1 03 DF 03
 (1780495918.717600)  can0  18FFA328   [8]  E0 29 01 00 FF FF FF FF
 (1780495918.825987)  can0  18FEE828   [8]  FF FF FF FF FF FF FF FF
 (1780495918.830267)  can0  18FFA428   [8]  58 00 00 00 00 00 00 60
 (1780495918.834576)  can0  18FFA528   [8]  00 00 00 00 FF FF FF FF
 (1780495918.838806)  can0  18FFA628   [8]  00 00 00 00 00 00 00 FF
 (1780495918.843060)  can0  18FFA728   [8]  00 00 00 00 20 00 20 00
 (1780495918.847681)  can0  18FFA828   [8]  00 01 00 00 00 00 00 00
 (1780495918.851941)  can0  18FFAA28   [8]  16 00 11 FF FF FF FF FF
 (1780495918.856196)  can0  18FFAC28   [8]  00 00 FF FF FF FF FF FF
 (1780495918.860490)  can0  18FEE828   [8]  FF FF FF FF FF FF FF FF
 (1780495918.972611)  can0  18FFCA28   [8]  03 0D 30 75 19 FF FF FF
 (1780495918.976688)  can0  18F00428   [8]  92 FF FF 91 1A FF FF FF
 (1780495918.981003)  can0  18F00328   [8]  FF FF 1E FF FF FF FF FF
 (1780495918.985224)  can0  18FFA128   [8]  00 00 64 00 25 50 4F 50
 (1780495918.989476)  can0  18FEF328   [8]  93 25 E3 9B A5 9D D9 7F
 (1780495918.993794)  can0  18FEE828   [8]  FF FF FF FF FF FF FF FF
 (1780495918.998095)  can0  18F00428   [8]  92 FF FF 90 1A FF FF FF
 (1780495919.002373)  can0  18F00328   [8]  FF FF 1D FF FF FF FF FF
 (1780495919.006502)  can0  18FFA028   [8]  D2 02 21 00 00 F8 FF 02
 (1780495919.119434)  can0  18FFA128   [8]  00 00 64 00 22 50 4F 50
 (1780495919.123598)  can0  18FFA228   [8]  FF FF FF FF E1 03 DF 03
 (1780495919.127838)  can0  18FFA328   [8]  E0 29 01 00 FF FF FF FF
 (1780495919.132693)  can0  18FEE828   [8]  FF FF FF FF FF FF FF FF
 (1780495919.137115)  can0  18F00428   [8]  92 FF FF 8E 1A FF FF FF
 (1780495919.141366)  can0  18F00328   [8]  FF FF 1D FF FF FF FF FF
 (1780495919.145525)  can0  18FEF728   [8]  FF FF FF FF 28 02 FF FF
 (1780495919.149864)  can0  18FEFC28   [8]  FF 87 FF FF FF FF FF FF
 (1780495919.313522)  can0  18FFCA28   [8]  03 0D 30 75 19 FF FF FF
 (1780495919.317645)  can0  18FEEE28   [8]  78 FF FF FF 20 22 FF FF
 (1780495919.321968)  can0  18FE6828   [8]  46 FF FF FF FF FF FF FF
 (1780495919.326601)  can0  18FFA128   [8]  00 00 64 00 11 50 4F 50
 (1780495919.330974)  can0  18FFAB28   [8]  00 00 00 00 00 00 00 00
 (1780495919.335170)  can0  18FEF328   [8]  93 25 E3 9B A6 9D D9 7F
 (1780495919.339514)  can0  18FEE828   [8]  FF FF FF FF FF FF FF FF
 (1780495919.343989)  can0  18F00428   [8]  92 FF FF 8C 1A FF FF FF
 (1780495919.348260)  can0  18F00328   [8]  FF FF 1D FF FF FF FF FF
 (1780495919.466007)  can0  18FEE828   [8]  FF FF FF FF FF FF FF FF
 (1780495919.470160)  can0  18FFA028   [8]  D2 02 21 00 00 F8 FF 02
 (1780495919.474474)  can0  18FFA128   [8]  00 00 64 00 13 50 4F 50
 (1780495919.478718)  can0  18FFA228   [8]  FF FF FF FF E1 03 DF 03
 (1780495919.482969)  can0  18FFA328   [8]  E0 29 01 00 FF FF FF FF
 (1780495919.487321)  can0  18FFA428   [8]  58 00 00 00 00 00 00 60
 (1780495919.491702)  can0  18FFA528   [8]  00 00 00 00 FF FF FF FF
 (1780495919.496023)  can0  18FFA628   [8]  00 00 00 00 00 00 00 FF
 (1780495919.500316)  can0  18FFA728   [8]  00 00 00 00 20 00 20 00
 (1780495919.612378)  can0  18FFCA28   [8]  03 0D 30 75 19 FF FF FF
 (1780495919.616562)  can0  18FEE828   [8]  FF FF FF FF FF FF FF FF
 (1780495919.620762)  can0  18F00428   [8]  92 FF FF 8C 1A FF FF FF
 (1780495919.624983)  can0  18F00328   [8]  FF FF 1E FF FF FF FF FF
 (1780495919.629288)  can0  18FFA128   [8]  00 00 64 00 1F 50 4F 50
 (1780495919.633375)  can0  18FEF328   [8]  92 25 E3 9B A7 9D D9 7F
 (1780495919.638270)  can0  18FEE828   [8]  FF FF FF FF FF FF FF FF
 (1780495919.642912)  can0  18F00428   [8]  92 FF FF 8D 1A FF FF FF
 (1780495919.647171)  can0  18F00328   [8]  FF FF 1E FF FF FF FF FF
 (1780495919.760566)  can0  18FFA028   [8]  D2 02 21 00 00 F8 FF 02
 (1780495919.764784)  can0  18FFA128   [8]  00 00 64 00 22 50 4F 50
 (1780495919.769058)  can0  18FFA228   [8]  FF FF FF FF E1 03 DF 03
 (1780495919.773307)  can0  18FFA328   [8]  E0 29 01 00 FF FF FF FF
 (1780495919.777558)  can0  18F00428   [8]  92 FF FF 88 1A FF FF FF
 (1780495919.782025)  can0  18F00328   [8]  FF FF 1E FF FF FF FF FF
 (1780495919.786141)  can0  18FFA128   [8]  00 00 64 00 1B 50 4F 50
 (1780495919.790452)  can0  18FEF328   [8]  92 25 E3 9B A7 9D D9 7F
 (1780495919.915302)  can0  18FFCA28   [8]  03 0D 30 75 19 FF FF FF
 (1780495919.919530)  can0  18FEE828   [8]  FF FF FF FF FF FF FF FF
 (1780495919.923765)  can0  18F00428   [8]  92 FF FF 82 1A FF FF FF
 (1780495919.928084)  can0  18F00328   [8]  FF FF 1E FF FF FF FF FF
 (1780495919.932234)  can0  18FFA028   [8]  D2 02 21 00 00 F8 FF 02
 (1780495919.936845)  can0  18FFA128   [8]  00 00 64 00 1D 50 4F 50
 (1780495919.941199)  can0  18FFA228   [8]  FF FF FF FF E1 03 DF 03
 (1780495919.945326)  can0  18FFA328   [8]  E0 29 01 00 FF FF FF FF
 (1780495919.949540)  can0  18FFA428   [8]  58 00 00 00 00 00 00 60
 (1780495920.057800)  can0  18FEE828   [8]  FF FF FF FF FF FF FF FF
 (1780495920.061983)  can0  18FFA528   [8]  00 00 00 00 FF FF FF FF
 (1780495920.066200)  can0  18FFA628   [8]  00 00 00 00 00 00 00 FF
 (1780495920.070532)  can0  18FFA728   [8]  00 00 00 00 20 00 20 00
 (1780495920.074809)  can0  18FFA828   [8]  00 01 00 00 00 00 00 00
 (1780495920.079076)  can0  18FFAA28   [8]  16 00 11 FF FF FF FF FF
 (1780495920.083412)  can0  18FEE828   [8]  FF FF FF FF FF FF FF FF
 (1780495920.087783)  can0  18F00428   [8]  92 FF FF 87 1A FF FF FF
 (1780495920.092058)  can0  18F00328   [8]  FF FF 1E FF FF FF FF FF
 (1780495920.241995)  can0  18FFCA28   [8]  03 0D 30 75 19 FF FF FF
 (1780495920.250228)  can0  18FFA128   [8]  00 00 64 00 20 50 4F 50
 (1780495920.254850)  can0  18FEF328   [8]  92 25 E3 9B A7 9D D9 7F
 (1780495920.259093)  can0  18FEE828   [8]  FF FF FF FF FF FF FF FF
 (1780495920.263531)  can0  18F00428   [8]  92 FF FF A0 1A FF FF FF
 (1780495920.267889)  can0  18F00328   [8]  FF FF 1E FF FF FF FF FF
 (1780495920.272105)  can0  18FEF728   [8]  FF FF FF FF 2A 02 FF FF
 (1780495920.276631)  can0  18FEFC28   [8]  FF 87 FF FF FF FF FF FF
 (1780495920.280809)  can0  18FEEE28   [8]  78 FF FF FF 20 22 FF FF
 (1780495920.389158)  can0  18FE6828   [8]  46 FF FF FF FF FF FF FF
 (1780495920.393288)  can0  18FFA028   [8]  D2 02 21 00 00 F8 FF 02
 (1780495920.397536)  can0  18FFA128   [8]  00 00 64 00 1F 50 4F 50
 (1780495920.401814)  can0  18FFA228   [8]  FF FF FF FF E1 03 DF 03
 (1780495920.406082)  can0  18FFA328   [8]  E0 29 01 00 FF FF FF FF
 (1780495920.410487)  can0  18FFAB28   [8]  00 00 00 00 00 00 00 00
 (1780495920.414788)  can0  18F00428   [8]  92 FF FF 8A 1A FF FF FF
 (1780495920.419132)  can0  18F00328   [8]  FF FF 1E FF FF FF FF FF
 (1780495920.543830)  can0  18FFCA28   [8]  03 0D 30 75 19 FF FF FF
 (1780495920.547983)  can0  18FFA128   [8]  00 00 64 00 1E 50 4F 50
 (1780495920.552460)  can0  18FEF328   [8]  89 25 E3 9B AE 9D D9 7F
 (1780495920.556773)  can0  18FEE828   [8]  FF FF FF FF FF FF FF FF
 (1780495920.561047)  can0  18F00428   [8]  92 FF FF 7E 1A FF FF FF
 (1780495920.565448)  can0  18F00328   [8]  FF FF 1E FF FF FF FF FF
 (1780495920.569781)  can0  18FFA028   [8]  D2 02 21 00 00 F8 FF 02
 (1780495920.574214)  can0  18FFA128   [8]  00 00 64 00 11 50 4F 50
 (1780495920.578528)  can0  18FFA228   [8]  FF FF FF FF E1 03 DF 03
 (1780495920.691479)  can0  18FEE828   [8]  FF FF FF FF FF FF FF FF
 (1780495920.695566)  can0  18FFA328   [8]  E0 29 01 00 FF FF FF FF
 (1780495920.699796)  can0  18FFA428   [8]  58 00 00 00 00 00 00 60
 (1780495920.704064)  can0  18FFA528   [8]  00 00 00 00 FF FF FF FF
 (1780495920.708368)  can0  18FFA628   [8]  00 00 00 00 00 00 00 FF
 (1780495920.712668)  can0  18FFA728   [8]  00 00 00 00 20 00 20 00
 (1780495920.716995)  can0  18FFA828   [8]  00 01 00 00 00 00 00 00
 (1780495920.721370)  can0  18FFAA28   [8]  16 00 11 FF FF FF FF FF
 (1780495920.725620)  can0  18FEE828   [8]  FF FF FF FF FF FF FF FF
 (1780495920.837590)  can0  18FFCA28   [8]  03 0D 30 75 19 FF FF FF
 (1780495920.841793)  can0  18FEE528   [8]  36 35 00 00 FF FF FF FF
 (1780495920.846043)  can0  18FEE928   [8]  D9 74 00 00 FF FF FF FF
 (1780495920.850268)  can0  18F00428   [8]  92 FF FF 8D 1A FF FF FF
 (1780495920.854569)  can0  18F00328   [8]  FF FF 1E FF FF FF FF FF
 (1780495920.858842)  can0  18FFA128   [8]  00 00 64 00 17 50 4F 50
 (1780495920.863218)  can0  18FFAC28   [8]  00 00 FF FF FF FF FF FF
 (1780495920.867523)  can0  18FEF328   [8]  89 25 E3 9B B0 9D D9 7F
 (1780495920.871824)  can0  18FEE828   [8]  FF FF FF FF FF FF FF FF
 (1780495920.933089)  can0  18FFDC9E   [8]  FF 0F 00 00 00 00 00 00
 (1780495920.982382)  can0  18FEE828   [8]  FF FF FF FF FF FF FF FF
 (1780495920.986524)  can0  18FFD228   [8]  00 FF FF FF FF FF FF FF
 (1780495920.990698)  can0  18F00428   [8]  92 FF FF 87 1A FF FF FF
 (1780495920.994994)  can0  18F00328   [8]  FF FF 1E FF FF FF FF FF
 (1780495920.999276)  can0  18FFA028   [8]  D2 02 21 00 00 F8 FF 02
 (1780495921.003550)  can0  18FFA128   [8]  00 00 64 00 1F 50 4F 50
 (1780495921.007904)  can0  18FFA228   [8]  FF FF FF FF E1 03 DF 03
 (1780495921.012304)  can0  18FFA328   [8]  E0 29 01 00 FF FF FF FF
 (1780495921.016576)  can0  18F00428   [8]  92 FF FF 7F 1A FF FF FF
 (1780495921.166168)  can0  18FFCA28   [8]  03 0D 30 75 19 FF FF FF
 (1780495921.170126)  can0  18F00328   [8]  FF FF 1E FF FF FF FF FF
 (1780495921.174348)  can0  18FFA128   [8]  00 00 64 00 26 50 4F 50
 (1780495921.178528)  can0  18FEF328   [8]  89 25 E3 9B B0 9D D9 7F
 (1780495921.183330)  can0  18FEE828   [8]  FF FF FF FF FF FF FF FF
 (1780495921.187805)  can0  18F00428   [8]  92 FF FF 94 1A FF FF FF
 (1780495921.192305)  can0  18F00328   [8]  FF FF 1E FF FF FF FF FF
 (1780495921.196604)  can0  18FFA028   [8]  D2 02 21 00 00 F8 FF 02
 (1780495921.200930)  can0  18FFA128   [8]  00 00 64 00 28 50 4F 50
 (1780495921.318696)  can0  18FEE828   [8]  FF FF FF FF FF FF FF FF
 (1780495921.322814)  can0  18FFA228   [8]  FF FF FF FF E1 03 DF 03
 (1780495921.327061)  can0  18FFA328   [8]  E0 29 01 00 FF FF FF FF
 (1780495921.331362)  can0  18FFA428   [8]  58 00 00 00 00 00 00 60
 (1780495921.335749)  can0  18FFA528   [8]  00 00 00 00 FF FF FF FF
 (1780495921.340207)  can0  18FFA628   [8]  00 00 00 00 00 00 00 FF
 (1780495921.344567)  can0  18FFA728   [8]  00 00 00 00 20 00 20 00
 (1780495921.348679)  can0  18FFA828   [8]  00 01 00 00 00 00 00 00
 (1780495921.353176)  can0  18FFAA28   [8]  16 00 11 FF FF FF FF FF
 (1780495921.469568)  can0  18FFCA28   [8]  03 0D 30 75 19 FF FF FF
 (1780495921.473746)  can0  18FEE828   [8]  FF FF FF FF FF FF FF FF
 (1780495921.477945)  can0  18F00428   [8]  92 FF FF 9C 1A FF FF FF
 (1780495921.482353)  can0  18F00328   [8]  FF FF 1E FF FF FF FF FF
 (1780495921.486700)  can0  18FEF728   [8]  FF FF FF FF 28 02 FF FF
 (1780495921.491064)  can0  18FEFC28   [8]  FF 87 FF FF FF FF FF FF
 (1780495921.495417)  can0  18FEEE28   [8]  78 FF FF FF 20 22 FF FF
 (1780495921.499554)  can0  18FE6828   [8]  46 FF FF FF FF FF FF FF
 (1780495921.503775)  can0  18FFA128   [8]  00 00 64 00 30 50 4F 50
 (1780495921.621042)  can0  18FEF328   [8]  86 25 E3 9B B4 9D D9 7F
 (1780495921.625337)  can0  18FEE828   [8]  FF FF FF FF FF FF FF FF
 (1780495921.629592)  can0  18F00428   [8]  92 FF FF 9A 1A FF FF FF
 (1780495921.633774)  can0  18F00328   [8]  FF FF 1E FF FF FF FF FF
 (1780495921.638192)  can0  18FFA028   [8]  D2 02 21 00 00 F8 FF 02
 (1780495921.642525)  can0  18FFA128   [8]  00 00 64 00 29 50 4F 50
 (1780495921.646847)  can0  18FFA228   [8]  FF FF FF FF E1 03 DF 03
 (1780495921.651116)  can0  18FFA328   [8]  E0 29 01 00 FF FF FF FF
 (1780495921.771369)  can0  18FFCA28   [8]  03 0D 30 75 19 FF FF FF
 (1780495921.775611)  can0  18F00428   [8]  92 FF FF A4 1A FF FF FF
 (1780495921.779867)  can0  18F00328   [8]  FF FF 1E FF FF FF FF FF
 (1780495921.784124)  can0  18FFA128   [8]  00 00 64 00 1E 50 4F 50
 (1780495921.788375)  can0  18FEF328   [8]  86 25 E3 9B B5 9D D9 7F
 (1780495921.792873)  can0  18FEE828   [8]  FF FF FF FF FF FF FF FF
 (1780495921.797154)  can0  18F00428   [8]  92 FF FF 93 1A FF FF FF
 (1780495921.801452)  can0  18F00328   [8]  FF FF 1E FF FF FF FF FF
 (1780495921.805659)  can0  18FFA028   [8]  D2 02 21 00 00 F8 FF 02
 (1780495921.917873)  can0  18FEE828   [8]  FF FF FF FF FF FF FF FF
 (1780495921.922009)  can0  18FFA128   [8]  00 00 64 00 2A 50 4F 50
 (1780495921.926181)  can0  18FFA228   [8]  FF FF FF FF E1 03 DF 03
 (1780495921.930289)  can0  18FFA328   [8]  E0 29 01 00 FF FF FF FF
 (1780495921.934707)  can0  18FFA428   [8]  58 00 00 00 00 00 00 60
 (1780495921.939096)  can0  18FFA528   [8]  00 00 00 00 FF FF FF FF
 (1780495921.943439)  can0  18FFA628   [8]  00 00 00 00 00 00 00 FF
 (1780495921.947771)  can0  18FFA728   [8]  00 00 00 00 20 00 20 00
 (1780495921.952030)  can0  18FFA828   [8]  00 01 00 00 00 00 00 00
 (1780495922.097208)  can0  18FFCA28   [8]  03 0D 30 75 19 FF FF FF
 (1780495922.101434)  can0  18F00428   [8]  92 FF FF 8D 1A FF FF FF
 (1780495922.105622)  can0  18F00328   [8]  FF FF 1F FF FF FF FF FF
 (1780495922.109963)  can0  18FFA128   [8]  00 00 64 00 25 50 4F 50
 (1780495922.114221)  can0  18FEF328   [8]  86 25 E3 9B B5 9D D9 7F
 (1780495922.118628)  can0  18FEE828   [8]  FF FF FF FF FF FF FF FF
 (1780495922.122826)  can0  18F00428   [8]  92 FF FF 8D 1A FF FF FF
 (1780495922.127498)  can0  18F00328   [8]  FF FF 1E FF FF FF FF FF
 (1780495922.131698)  can0  18FFA028   [8]  D2 02 21 00 00 F8 FF 02
 (1780495922.244722)  can0  18FFA128   [8]  00 00 64 00 26 50 4F 50
 (1780495922.248932)  can0  18FFA228   [8]  FF FF FF FF E1 03 DF 03
 (1780495922.260200)  can0  18FFA328   [8]  E0 29 01 00 FF FF FF FF
 (1780495922.264516)  can0  18F00428   [8]  92 FF FF 87 1A FF FF FF
 (1780495922.268823)  can0  18F00328   [8]  FF FF 1E FF FF FF FF FF
 (1780495922.273625)  can0  18FFA128   [8]  00 00 64 00 1E 50 4F 50
 (1780495922.277972)  can0  18FEF328   [8]  89 25 E3 9B B1 9D D9 7F
 (1780495922.282129)  can0  18FEE828   [8]  FF FF FF FF FF FF FF FF
 (1780495922.399162)  can0  18FFCA28   [8]  03 0D 30 75 19 FF FF FF
 (1780495922.403268)  can0  18F00428   [8]  92 FF FF 93 1A FF FF FF
 (1780495922.407557)  can0  18F00328   [8]  FF FF 1E FF FF FF FF FF
 (1780495922.411863)  can0  18FEF728   [8]  FF FF FF FF 28 02 FF FF
 (1780495922.416151)  can0  18FEFC28   [8]  FF 87 FF FF FF FF FF FF
 (1780495922.420495)  can0  18FEEE28   [8]  78 FF FF FF 20 22 FF FF
 (1780495922.424874)  can0  18FE6828   [8]  46 FF FF FF FF FF FF FF
 (1780495922.429328)  can0  18FFA028   [8]  D2 02 21 00 00 F8 FF 02
 (1780495922.433441)  can0  18FFA128   [8]  00 00 64 00 09 50 4F 50
 (1780495922.545639)  can0  18FFDD28   [8]  F9 32 FF FF FF FF FF FF
 (1780495922.549741)  can0  18FFA228   [8]  FF FF FF FF E1 03 DF 03
 (1780495922.553940)  can0  18FFA328   [8]  E0 29 01 00 FF FF FF FF
 (1780495922.558246)  can0  18FFA428   [8]  58 00 00 00 00 00 00 60
 (1780495922.562516)  can0  18FFA528   [8]  00 00 00 00 FF FF FF FF
 (1780495922.566846)  can0  18FFA628   [8]  00 00 00 00 00 00 00 FF
 (1780495922.571091)  can0  18FFA728   [8]  00 00 00 00 20 00 20 00
 (1780495922.575453)  can0  18FFA828   [8]  00 01 00 00 00 00 00 00
 (1780495922.579733)  can0  18FFAA28   [8]  16 00 11 FF FF FF FF FF
 (1780495922.691473)  can0  18FFCA28   [8]  03 0D 30 75 19 FF FF FF
 (1780495922.695660)  can0  18FEE828   [8]  FF FF FF FF FF FF FF FF
 (1780495922.699857)  can0  18F00428   [8]  92 FF FF 86 1A FF FF FF
 (1780495922.704128)  can0  18F00328   [8]  FF FF 1E FF FF FF FF FF
 (1780495922.708382)  can0  18FFA128   [8]  00 00 64 00 17 50 4F 50
 (1780495922.712627)  can0  18FEF328   [8]  8D 25 E3 9B AE 9D D9 7F
 (1780495922.717013)  can0  18FEE828   [8]  FF FF FF FF FF FF FF FF
 (1780495922.721310)  can0  18F00428   [8]  92 FF FF 91 1A FF FF FF
 (1780495922.725535)  can0  18F00328   [8]  FF FF 1E FF FF FF FF FF
 (1780495922.838854)  can0  18FFA028   [8]  D2 02 21 00 00 F8 FF 02
 (1780495922.842902)  can0  18FFA128   [8]  00 00 64 00 14 50 4F 50
 (1780495922.847348)  can0  18FFA228   [8]  FF FF FF FF E1 03 DF 03
 (1780495922.851643)  can0  18FFA328   [8]  E0 29 01 00 FF FF FF FF
 (1780495922.856249)  can0  18FFAC28   [8]  00 00 FF FF FF FF FF FF
 (1780495922.860699)  can0  18F00428   [8]  93 FF FF 84 1A FF FF FF
 (1780495922.865019)  can0  18F00328   [8]  FF FF 1E FF FF FF FF FF
 (1780495922.869241)  can0  18FFA128   [8]  00 00 64 00 13 50 4F 50
 (1780495923.018410)  can0  18FFCA28   [8]  03 0D 30 75 19 FF FF FF
 (1780495923.022538)  can0  18FEF328   [8]  8E 25 E3 9B AE 9D D9 7F
 (1780495923.026870)  can0  18FEE828   [8]  FF FF FF FF FF FF FF FF
 (1780495923.031127)  can0  18F00428   [8]  92 FF FF 92 1A FF FF FF
 (1780495923.035368)  can0  18F00328   [8]  FF FF 1E FF FF FF FF FF
 (1780495923.039667)  can0  18FFA028   [8]  D2 02 21 00 00 F8 FF 02
 (1780495923.044002)  can0  18FFA128   [8]  00 00 64 00 1F 50 4F 50
 (1780495923.048396)  can0  18FFA228   [8]  FF FF FF FF E1 03 DF 03
 (1780495923.052822)  can0  18FFA328   [8]  E0 29 01 00 FF FF FF FF
 (1780495923.168886)  can0  18FEE828   [8]  FF FF FF FF FF FF FF FF
 (1780495923.173048)  can0  18FFA428   [8]  58 00 00 00 00 00 00 60
 (1780495923.177388)  can0  18FFA528   [8]  00 00 00 00 FF FF FF FF
 (1780495923.181659)  can0  18FFA628   [8]  00 00 00 00 00 00 00 FF
 (1780495923.185980)  can0  18FFA728   [8]  00 00 00 00 20 00 20 00
 (1780495923.190342)  can0  18FFA828   [8]  00 01 00 00 00 00 00 00
 (1780495923.194537)  can0  18FFAA28   [8]  16 00 11 FF FF FF FF FF
 (1780495923.198822)  can0  18FEE828   [8]  FF FF FF FF FF FF FF FF
 (1780495923.202970)  can0  18F00428   [8]  92 FF FF 97 1A FF FF FF
 (1780495923.320258)  can0  18FFCB28   [8]  0C 25 E3 9B 44 9F D9 7F
 (1780495923.324483)  can0  18F00328   [8]  FF FF 1E FF FF FF FF FF
 (1780495923.328687)  can0  18FFA128   [8]  00 00 64 00 2A 50 4F 50
 (1780495923.333035)  can0  18FEF328   [8]  8F 25 E3 9B AD 9D D9 7F
 (1780495923.337330)  can0  18FEE828   [8]  FF FF FF FF FF FF FF FF
 (1780495923.341563)  can0  18F00428   [8]  92 FF FF A3 1A FF FF FF
 (1780495923.345723)  can0  18F00328   [8]  FF FF 1E FF FF FF FF FF
 (1780495923.349966)  can0  18FFA028   [8]  D2 02 21 00 00 F8 FF 02
 (1780495923.354158)  can0  18FFA128   [8]  00 00 64 00 2E 50 4F 50
 (1780495923.466590)  can0  18FFA228   [8]  FF FF FF FF E1 03 DF 03
 (1780495923.470723)  can0  18FFA328   [8]  E0 29 01 00 FF FF FF FF
 (1780495923.475024)  can0  18FEE828   [8]  FF FF FF FF FF FF FF FF
 (1780495923.479282)  can0  18F00428   [8]  92 FF FF 88 1A FF FF FF
 (1780495923.483570)  can0  18F00328   [8]  FF FF 1E FF FF FF FF FF
 (1780495923.487917)  can0  18FEF728   [8]  FF FF FF FF 2A 02 FF FF
 (1780495923.492278)  can0  18FEFC28   [8]  FF 87 FF FF FF FF FF FF
 (1780495923.496669)  can0  18FEEE28   [8]  78 FF FF FF 20 22 FF FF
 (1780495923.616945)  can0  18FFCA28   [8]  03 0D 30 75 19 FF FF FF
 (1780495923.621295)  can0  18FE6828   [8]  46 FF FF FF FF FF FF FF
 (1780495923.625504)  can0  18FFA128   [8]  00 00 64 00 2B 50 4F 50
 (1780495923.629843)  can0  18FFAB28   [8]  00 00 00 00 00 00 00 00
 (1780495923.634037)  can0  18FEF328   [8]  8C 25 E3 9B AF 9D D9 7F
 (1780495923.638473)  can0  18FEE828   [8]  FF FF FF FF FF FF FF FF
 (1780495923.642788)  can0  18F00428   [8]  92 FF FF 8C 1A FF FF FF
 (1780495923.647076)  can0  18F00328   [8]  FF FF 1E FF FF FF FF FF
 (1780495923.651332)  can0  18FFA028   [8]  D2 02 21 00 00 F8 FF 02
 (1780495923.771683)  can0  18FEE828   [8]  FF FF FF FF FF FF FF FF
 (1780495923.775821)  can0  18FFA128   [8]  00 00 64 00 25 50 4F 50
 (1780495923.779925)  can0  18FFA228   [8]  FF FF FF FF E1 03 DF 03
 (1780495923.784390)  can0  18FFA328   [8]  E0 29 01 00 FF FF FF FF
 (1780495923.788648)  can0  18FFA428   [8]  58 00 00 00 00 00 00 60
 (1780495923.793037)  can0  18FFA528   [8]  00 00 00 00 FF FF FF FF
 (1780495923.797209)  can0  18FFA628   [8]  00 00 00 00 00 00 00 FF
 (1780495923.801629)  can0  18FFA728   [8]  00 00 00 00 20 00 20 00
 (1780495923.805883)  can0  18FFA828   [8]  00 01 00 00 00 00 00 00
 (1780495923.933357)  can0  18FFDC9E   [8]  FF 0F 00 00 00 00 00 00
 (1780495923.945226)  can0  18FFCA28   [8]  03 0D 30 75 19 FF FF FF
 (1780495923.949413)  can0  18FEE828   [8]  FF FF FF FF FF FF FF FF
 (1780495923.953562)  can0  18F00428   [8]  92 FF FF 8C 1A FF FF FF
 (1780495923.957864)  can0  18F00328   [8]  FF FF 1E FF FF FF FF FF
 (1780495923.962134)  can0  18FFA128   [8]  00 00 64 00 27 50 4F 50
 (1780495923.966486)  can0  18FEF328   [8]  8C 25 E3 9B AF 9D D9 7F
 (1780495923.970839)  can0  18FEE828   [8]  FF FF FF FF FF FF FF FF
 (1780495923.975163)  can0  18FFD228   [8]  00 FF FF FF FF FF FF FF
 (1780495923.979489)  can0  18F00428   [8]  92 FF FF 93 1A FF FF FF
 (1780495924.096013)  can0  18F00328   [8]  FF FF 1D FF FF FF FF FF
 (1780495924.100219)  can0  18FFA028   [8]  D2 02 21 00 00 F8 FF 02
 (1780495924.104531)  can0  18FFA128   [8]  00 00 64 00 28 50 4F 50
 (1780495924.108786)  can0  18FFA228   [8]  FF FF FF FF E1 03 DF 03
 (1780495924.113055)  can0  18FFA328   [8]  E0 29 01 00 FF FF FF FF
 (1780495924.117384)  can0  18F00428   [8]  92 FF FF 92 1A FF FF FF
 (1780495924.121500)  can0  18F00328   [8]  FF FF 1E FF FF FF FF FF
 (1780495924.125763)  can0  18FFA128   [8]  00 00 64 00 2D 50 4F 50
 (1780495924.246064)  can0  18FFCA28   [8]  03 0D 30 75 19 FF FF FF
 (1780495924.250201)  can0  18FFCA28   [8]  03 0D 30 75 19 FF FF FF
 (1780495924.254493)  can0  18FEF328   [8]  8C 25 E3 9B AF 9D D9 7F
 (1780495924.258832)  can0  18FEE828   [8]  FF FF FF FF FF FF FF FF
 (1780495924.263063)  can0  18F00428   [8]  92 FF FF 8C 1A FF FF FF
 (1780495924.267552)  can0  18F00328   [8]  FF FF 1E FF FF FF FF FF
 (1780495924.271778)  can0  18FFA028   [8]  D2 02 21 00 00 F8 FF 02
 (1780495924.276056)  can0  18FFA128   [8]  00 00 64 00 2D 50 4F 50
 (1780495924.280418)  can0  18FFA228   [8]  FF FF FF FF E1 03 DF 03
 (1780495924.400611)  can0  18FEE828   [8]  FF FF FF FF FF FF FF FF
 (1780495924.404776)  can0  18FFA328   [8]  E0 29 01 00 FF FF FF FF
 (1780495924.409027)  can0  18FFA428   [8]  58 00 00 00 00 00 00 60
 (1780495924.413267)  can0  18FFA528   [8]  00 00 00 00 FF FF FF FF
 (1780495924.417483)  can0  18FFA628   [8]  00 00 00 00 00 00 00 FF
 (1780495924.421737)  can0  18FFA728   [8]  00 00 00 00 20 00 20 00
 (1780495924.426161)  can0  18FFA828   [8]  00 01 00 00 00 00 00 00
 (1780495924.430417)  can0  18FFAA28   [8]  16 00 11 FF FF FF FF FF
 (1780495924.434519)  can0  18FEE828   [8]  FF FF FF FF FF FF FF FF
 (1780495924.546357)  can0  18FFCA28   [8]  03 0D 30 75 19 FF FF FF
 (1780495924.550665)  can0  18F00428   [8]  92 FF FF 8E 1A FF FF FF
 (1780495924.554906)  can0  18F00328   [8]  FF FF 1E FF FF FF FF FF
 (1780495924.559158)  can0  18FFA128   [8]  00 00 64 00 21 50 4F 50
 (1780495924.563273)  can0  18FEF328   [8]  8D 25 E3 9B AE 9D D9 7F
 (1780495924.567695)  can0  18FEE828   [8]  FF FF FF FF FF FF FF FF
 (1780495924.571922)  can0  18F00428   [8]  92 FF FF 89 1A FF FF FF
 (1780495924.576196)  can0  18F00328   [8]  FF FF 1E FF FF FF FF FF
 (1780495924.580379)  can0  18FEF728   [8]  FF FF FF FF 2A 02 FF FF
 (1780495924.692157)  can0  18FEFC28   [8]  FF 87 FF FF FF FF FF FF
 (1780495924.696290)  can0  18FEEE28   [8]  78 FF FF FF 20 22 FF FF
 (1780495924.700584)  can0  18FE6828   [8]  46 FF FF FF FF FF FF FF
 (1780495924.704721)  can0  18FFA028   [8]  D2 02 21 00 00 F8 FF 02
 (1780495924.708949)  can0  18FFA128   [8]  00 00 64 00 2A 50 4F 50
 (1780495924.713242)  can0  18FFA228   [8]  FF FF FF FF E1 03 DF 03
 (1780495924.717476)  can0  18FFA328   [8]  E0 29 01 00 FF FF FF FF
 (1780495924.721749)  can0  18FFAB28   [8]  00 00 00 00 00 00 00 00
 (1780495924.875107)  can0  18FFCA28   [8]  03 0D 30 75 19 FF FF FF
 (1780495924.879278)  can0  18F00428   [8]  92 FF FF 86 1A FF FF FF
 (1780495924.883503)  can0  18F00328   [8]  FF FF 1E FF FF FF FF FF
 (1780495924.887705)  can0  18FFA128   [8]  00 00 64 00 28 50 4F 50
 (1780495924.891953)  can0  18FEF328   [8]  8D 25 E3 9B AE 9D D9 7F
 (1780495924.896379)  can0  18FEE828   [8]  FF FF FF FF FF FF FF FF
 (1780495924.900629)  can0  18F00428   [8]  92 FF FF 90 1A FF FF FF
 (1780495924.904904)  can0  18F00328   [8]  FF FF 1E FF FF FF FF FF
 (1780495924.909155)  can0  18FFA028   [8]  D2 02 21 00 00 F8 FF 02
 (1780495925.029336)  can0  18FEE828   [8]  FF FF FF FF FF FF FF FF
 (1780495925.033456)  can0  18FFA128   [8]  00 00 64 00 21 50 4F 50
 (1780495925.037655)  can0  18FFA228   [8]  FF FF FF FF E1 03 DF 03
 (1780495925.041910)  can0  18FFA328   [8]  E0 29 01 00 FF FF FF FF
 (1780495925.046155)  can0  18FFA428   [8]  58 00 00 00 00 00 00 60
 (1780495925.050430)  can0  18FFA528   [8]  00 00 00 00 FF FF FF FF
 (1780495925.054820)  can0  18FFA628   [8]  00 00 00 00 00 00 00 FF
 (1780495925.059126)  can0  18FFA728   [8]  00 00 00 00 20 00 20 00
 (1780495925.063324)  can0  18FFA828   [8]  00 01 00 00 00 00 00 00
 (1780495925.175150)  can0  18FFCA28   [8]  03 0D 30 75 19 FF FF FF
 (1780495925.179407)  can0  18FEE828   [8]  FF FF FF FF FF FF FF FF
 (1780495925.183577)  can0  18F00428   [8]  92 FF FF 92 1A FF FF FF
 (1780495925.187836)  can0  18F00328   [8]  FF FF 1E FF FF FF FF FF
 (1780495925.192099)  can0  18FFA128   [8]  00 00 64 00 1C 50 4F 50
 (1780495925.196308)  can0  18FEF328   [8]  8D 25 E3 9B AE 9D D9 7F
 (1780495925.200660)  can0  18FEE828   [8]  FF FF FF FF FF FF FF FF
 (1780495925.204858)  can0  18F00428   [8]  92 FF FF 95 1A FF FF FF
 (1780495925.209157)  can0  18F00328   [8]  FF FF 1E FF FF FF FF FF
 (1780495925.330014)  can0  18FFA028   [8]  D2 02 21 00 00 F8 FF 02
 (1780495925.334009)  can0  18FFA128   [8]  00 00 64 00 20 50 4F 50
 (1780495925.338359)  can0  18FFA228   [8]  FF FF FF FF E1 03 DF 03
 (1780495925.342628)  can0  18FFA328   [8]  E0 29 01 00 FF FF FF FF
 (1780495925.346808)  can0  18F00428   [8]  92 FF FF 9A 1A FF FF FF
 (1780495925.351086)  can0  18F00328   [8]  FF FF 1D FF FF FF FF FF
 (1780495925.355389)  can0  18FFA128   [8]  00 00 64 00 1A 50 4F 50
 (1780495925.359560)  can0  18FEF328   [8]  87 25 E3 9B B2 9D D9 7F
 (1780495925.480143)  can0  18FFCA28   [8]  03 0D 30 75 19 FF FF FF
 (1780495925.484252)  can0  18FEE828   [8]  FF FF FF FF FF FF FF FF
 (1780495925.488642)  can0  18F00428   [8]  92 FF FF 85 1A FF FF FF
 (1780495925.492843)  can0  18F00328   [8]  FF FF 1D FF FF FF FF FF
 (1780495925.497281)  can0  18FFA028   [8]  D2 02 21 00 00 F8 FF 02
 (1780495925.501540)  can0  18FFA128   [8]  00 00 64 00 1E 50 4F 50
 (1780495925.505892)  can0  18FFA228   [8]  FF FF FF FF E1 03 DF 03
 (1780495925.510239)  can0  18FFA328   [8]  E0 29 01 00 FF FF FF FF
 (1780495925.514383)  can0  18FFA428   [8]  58 00 00 00 00 00 00 60
 (1780495925.630696)  can0  18FEE828   [8]  FF FF FF FF FF FF FF FF
 (1780495925.634760)  can0  18FFA528   [8]  00 00 00 00 FF FF FF FF
 (1780495925.639156)  can0  18FFA628   [8]  00 00 00 00 00 00 00 FF
 (1780495925.643451)  can0  18FFA728   [8]  00 00 00 00 20 00 20 00
 (1780495925.647737)  can0  18FFA828   [8]  00 01 00 00 00 00 00 00
 (1780495925.651982)  can0  18FFAA28   [8]  16 00 11 FF FF FF FF FF
 (1780495925.656207)  can0  18FEE828   [8]  FF FF FF FF FF FF FF FF
 (1780495925.660498)  can0  18F00428   [8]  92 FF FF 7C 1A FF FF FF
 (1780495925.664695)  can0  18F00328   [8]  FF FF 1E FF FF FF FF FF
 (1780495925.805941)  can0  18FFCA28   [8]  03 0D 30 75 19 FF FF FF
 (1780495925.810146)  can0  18FEF728   [8]  FF FF FF FF 28 02 FF FF
 (1780495925.814339)  can0  18FEFC28   [8]  FF 87 FF FF FF FF FF FF
 (1780495925.818520)  can0  18FEEE28   [8]  78 FF FF FF 20 22 FF FF
 (1780495925.822779)  can0  18FE6828   [8]  46 FF FF FF FF FF FF FF
 (1780495925.827166)  can0  18FFA128   [8]  00 00 64 00 1F 50 4F 50
 (1780495925.831581)  can0  18FFAB28   [8]  00 00 00 00 00 00 00 00
 (1780495925.835695)  can0  18FEF328   [8]  87 25 E3 9B B4 9D D9 7F
 (1780495925.840150)  can0  18FEE828   [8]  FF FF FF FF FF FF FF FF
 (1780495925.952381)  can0  18FEE528   [8]  36 35 00 00 FF FF FF FF
 (1780495925.956493)  can0  18FEE928   [8]  D9 74 00 00 FF FF FF FF
 (1780495925.960714)  can0  18F00428   [8]  92 FF FF 92 1A FF FF FF
 (1780495925.964986)  can0  18F00328   [8]  FF FF 1D FF FF FF FF FF
 (1780495925.969244)  can0  18FFA028   [8]  D2 02 21 00 00 F8 FF 02
 (1780495925.973490)  can0  18FFA128   [8]  00 00 64 00 1D 50 4F 50
 (1780495925.977776)  can0  18FFA228   [8]  FF FF FF FF E1 03 DF 03
 (1780495925.982100)  can0  18FFA328   [8]  E0 29 01 00 FF FF FF FF
 (1780495926.106628)  can0  18FFCA28   [8]  03 0D 30 75 19 FF FF FF
 (1780495926.110767)  can0  18F00428   [8]  92 FF FF 8F 1A FF FF FF
 (1780495926.115099)  can0  18F00328   [8]  FF FF 1E FF FF FF FF FF
 (1780495926.119281)  can0  18FFA128   [8]  00 00 64 00 15 50 4F 50
 (1780495926.123518)  can0  18FEF328   [8]  87 25 E3 9B B4 9D D9 7F
 (1780495926.127897)  can0  18FEE828   [8]  FF FF FF FF FF FF FF FF
 (1780495926.132191)  can0  18F00428   [8]  92 FF FF 90 1A FF FF FF
 (1780495926.136536)  can0  18F00328   [8]  FF FF 1E FF FF FF FF FF
 (1780495926.140767)  can0  18FFA028   [8]  D2 02 21 00 00 F8 FF 02
 (1780495926.256877)  can0  18FEE828   [8]  FF FF FF FF FF FF FF FF
 (1780495926.261055)  can0  18FFA128   [8]  00 00 64 00 14 50 4F 50
 (1780495926.265326)  can0  18FFA228   [8]  FF FF FF FF E1 03 DF 03
 (1780495926.269524)  can0  18FFA328   [8]  E0 29 01 00 FF FF FF FF
 (1780495926.273732)  can0  18FFA428   [8]  58 00 00 00 00 00 00 60
 (1780495926.278054)  can0  18FFA528   [8]  00 00 00 00 FF FF FF FF
 (1780495926.282339)  can0  18FFA628   [8]  00 00 00 00 00 00 00 FF
 (1780495926.286666)  can0  18FFA728   [8]  00 00 00 00 20 00 20 00
 (1780495926.290884)  can0  18FFA828   [8]  00 01 00 00 00 00 00 00
 (1780495926.407480)  can0  18FFCA28   [8]  03 0D 30 75 19 FF FF FF
 (1780495926.411848)  can0  18FEE828   [8]  FF FF FF FF FF FF FF FF
 (1780495926.416054)  can0  18F00428   [8]  92 FF FF A1 1A FF FF FF
 (1780495926.420281)  can0  18F00328   [8]  FF FF 1E FF FF FF FF FF
 (1780495926.424651)  can0  18FFA128   [8]  00 00 64 00 15 50 4F 50
 (1780495926.428746)  can0  18FEF328   [8]  89 25 E3 9B B1 9D D9 7F
 (1780495926.433118)  can0  18FEE828   [8]  FF FF FF FF FF FF FF FF
 (1780495926.437225)  can0  18F00428   [8]  92 FF FF 9C 1A FF FF FF
 (1780495926.441524)  can0  18F00328   [8]  FF FF 1E FF FF FF FF FF
 (1780495926.562377)  can0  18FFA028   [8]  D2 02 21 00 00 F8 FF 02
 (1780495926.566566)  can0  18FFA128   [8]  00 00 64 00 0D 50 4F 50
 (1780495926.570846)  can0  18FFA228   [8]  FF FF FF FF E1 03 DF 03
 (1780495926.575107)  can0  18FFA328   [8]  E0 29 01 00 FF FF FF FF
 (1780495926.579504)  can0  18F00428   [8]  92 FF FF A6 1A FF FF FF
 (1780495926.583805)  can0  18F00328   [8]  FF FF 1E FF FF FF FF FF
 (1780495926.587965)  can0  18FFA128   [8]  00 00 64 00 19 50 4F 50
 (1780495926.592357)  can0  18FEF328   [8]  8C 25 E3 9B AE 9D D9 7F
 (1780495926.750451)  can0  18FFCA28   [8]  03 0D 30 75 19 FF FF FF
 (1780495926.754724)  can0  18FEE828   [8]  FF FF FF FF FF FF FF FF
 (1780495926.758882)  can0  18F00428   [8]  92 FF FF 9C 1A FF FF FF
 (1780495926.763225)  can0  18F00328   [8]  FF FF 1E FF FF FF FF FF
 (1780495926.767438)  can0  18FEF728   [8]  FF FF FF FF 2A 02 FF FF
 (1780495926.771738)  can0  18FEFC28   [8]  FF 87 FF FF FF FF FF FF
 (1780495926.776013)  can0  18FEEE28   [8]  78 FF FF FF 20 22 FF FF
 (1780495926.780340)  can0  18FE6828   [8]  46 FF FF FF FF FF FF FF
 (1780495926.784589)  can0  18FFA028   [8]  D2 02 21 00 00 F8 FF 02
 (1780495926.901200)  can0  18FEE828   [8]  FF FF FF FF FF FF FF FF
 (1780495926.905586)  can0  18FFA128   [8]  00 00 64 00 25 50 4F 50
 (1780495926.909856)  can0  18FFA228   [8]  FF FF FF FF E1 03 DF 03
 (1780495926.914094)  can0  18FFA328   [8]  E0 29 01 00 FF FF FF FF
 (1780495926.918321)  can0  18FFA428   [8]  58 00 00 00 00 00 00 60
 (1780495926.922612)  can0  18FFA528   [8]  00 00 00 00 FF FF FF FF
 (1780495926.926913)  can0  18FFA628   [8]  00 00 00 00 00 00 00 FF
 (1780495926.931322)  can0  18FFA728   [8]  00 00 00 00 20 00 20 00
 (1780495926.933357)  can0  18FFDC9E   [8]  FF 0F 00 00 00 00 00 00
 (1780495926.934913)  can0  18FFA828   [8]  00 01 00 00 00 00 00 00
 (1780495927.051512)  can0  18FFCA28   [8]  03 0D 30 75 19 FF FF FF
 (1780495927.055777)  can0  18FEE828   [8]  FF FF FF FF FF FF FF FF
 (1780495927.060007)  can0  18F00428   [8]  92 FF FF 8D 1A FF FF FF
 (1780495927.064294)  can0  18F00328   [8]  FF FF 1E FF FF FF FF FF
 (1780495927.068552)  can0  18FFA128   [8]  00 00 64 00 1A 50 4F 50
 (1780495927.072884)  can0  18FFAC28   [8]  00 00 FF FF FF FF FF FF
 (1780495927.077237)  can0  18FEF328   [8]  8E 25 E3 9B AE 9D D9 7F
 (1780495927.081509)  can0  18FEE828   [8]  FF FF FF FF FF FF FF FF
 (1780495927.085760)  can0  18FFD228   [8]  00 FF FF FF FF FF FF FF
 (1780495927.197682)  can0  18F00428   [8]  92 FF FF 8D 1A FF FF FF
 (1780495927.201824)  can0  18F00328   [8]  FF FF 1E FF FF FF FF FF
 (1780495927.206092)  can0  18FFA028   [8]  D2 02 21 00 00 F8 FF 02
 (1780495927.210373)  can0  18FFA128   [8]  00 00 64 00 15 50 4F 50
 (1780495927.214652)  can0  18FFA228   [8]  FF FF FF FF E1 03 DF 03
 (1780495927.218924)  can0  18FFA328   [8]  E0 29 01 00 FF FF FF FF
 (1780495927.223192)  can0  18F00428   [8]  92 FF FF 74 1A FF FF FF
 (1780495927.227474)  can0  18F00328   [8]  FF FF 1E FF FF FF FF FF
 (1780495927.356784)  can0  18FFCA28   [8]  03 0D 30 75 19 FF FF FF
 (1780495927.360924)  can0  18FFA128   [8]  00 00 64 00 14 50 4F 50
 (1780495927.369924)  can0  18FEF328   [8]  8B 25 E3 9B B0 9D D9 7F
 (1780495927.374276)  can0  18FEE828   [8]  FF FF FF FF FF FF FF FF
 (1780495927.378502)  can0  18F00428   [8]  93 FF FF 81 1A FF FF FF
 (1780495927.382956)  can0  18F00328   [8]  FF FF 1F FF FF FF FF FF
 (1780495927.387351)  can0  18FFA028   [8]  D2 02 21 00 00 F8 FF 02
 (1780495927.391677)  can0  18FFA128   [8]  00 00 64 00 1C 50 4F 50
 (1780495927.395879)  can0  18FFA228   [8]  FF FF FF FF E1 03 DF 03
 (1780495927.508645)  can0  18FEE828   [8]  FF FF FF FF FF FF FF FF
 (1780495927.512795)  can0  18FFA328   [8]  E0 29 01 00 FF FF FF FF
 (1780495927.517040)  can0  18FFA428   [8]  58 00 00 00 00 00 00 60
 (1780495927.521360)  can0  18FFA528   [8]  00 00 00 00 FF FF FF FF
 (1780495927.525541)  can0  18FFA628   [8]  00 00 00 00 00 00 00 FF
 (1780495927.529789)  can0  18FFA728   [8]  00 00 00 00 20 00 20 00
 (1780495927.534132)  can0  18FFA828   [8]  00 01 00 00 00 00 00 00
 (1780495927.538495)  can0  18FFAA28   [8]  16 00 11 FF FF FF FF FF
 (1780495927.542714)  can0  18FEE828   [8]  FF FF FF FF FF FF FF FF
 (1780495927.687725)  can0  18FFDD28   [8]  F9 32 FF FF FF FF FF FF
 (1780495927.691916)  can0  18F00428   [8]  92 FF FF 8F 1A FF FF FF
 (1780495927.696101)  can0  18F00328   [8]  FF FF 1E FF FF FF FF FF
 (1780495927.700387)  can0  18FFA128   [8]  00 00 64 00 18 50 4F 50
 (1780495927.704633)  can0  18FEF328   [8]  8A 25 E3 9B B1 9D D9 7F
 (1780495927.709108)  can0  18FEE828   [8]  FF FF FF FF FF FF FF FF
 (1780495927.713410)  can0  18F00428   [8]  93 FF FF 8C 1A FF FF FF
 (1780495927.717684)  can0  18F00328   [8]  FF FF 1E FF FF FF FF FF
 (1780495927.721934)  can0  18FFA028   [8]  D2 02 21 00 00 F8 FF 02
 (1780495927.834244)  can0  18FFA128   [8]  00 00 64 00 14 50 4F 50
 (1780495927.838366)  can0  18FFA228   [8]  FF FF FF FF E1 03 DF 03
 (1780495927.842575)  can0  18FFA328   [8]  E0 29 01 00 FF FF FF FF
 (1780495927.846763)  can0  18F00428   [8]  93 FF FF 9A 1A FF FF FF
 (1780495927.851138)  can0  18F00328   [8]  FF FF 1F FF FF FF FF FF
 (1780495927.855484)  can0  18FEF728   [8]  FF FF FF FF 2A 02 FF FF
 (1780495927.859819)  can0  18FEFC28   [8]  FF 87 FF FF FF FF FF FF
 (1780495927.864044)  can0  18FEEE28   [8]  78 FF FF FF 20 22 FF FF
 (1780495927.989480)  can0  18FFCA28   [8]  03 0D 30 75 19 FF FF FF
 (1780495927.993665)  can0  18FE6828   [8]  46 FF FF FF FF FF FF FF
 (1780495927.997855)  can0  18FFA128   [8]  00 00 64 00 18 50 4F 50
 (1780495928.002194)  can0  18FFAB28   [8]  00 00 00 00 00 00 00 00
 (1780495928.006335)  can0  18FEF328   [8]  8A 25 E3 9B B1 9D D9 7F
 (1780495928.010663)  can0  18FEE828   [8]  FF FF FF FF FF FF FF FF
 (1780495928.014965)  can0  18F00428   [8]  92 FF FF 98 1A FF FF FF
 (1780495928.019263)  can0  18F00328   [8]  FF FF 1F FF FF FF FF FF
 (1780495928.023588)  can0  18FFA028   [8]  D2 02 21 00 00 F8 FF 02
 (1780495928.140299)  can0  18FEE828   [8]  FF FF FF FF FF FF FF FF
 (1780495928.144461)  can0  18FFA128   [8]  00 00 64 00 17 50 4F 50
 (1780495928.148754)  can0  18FFA228   [8]  FF FF FF FF E1 03 DF 03
 (1780495928.153023)  can0  18FFA328   [8]  E0 29 01 00 FF FF FF FF
 (1780495928.157299)  can0  18FFA428   [8]  58 00 00 00 00 00 00 60
 (1780495928.161614)  can0  18FFA528   [8]  00 00 00 00 FF FF FF FF
 (1780495928.165867)  can0  18FFA628   [8]  00 00 00 00 00 00 00 FF
 (1780495928.170214)  can0  18FFA728   [8]  00 00 00 00 20 00 20 00
 (1780495928.174460)  can0  18FFA828   [8]  00 01 00 00 00 00 00 00
 (1780495928.286338)  can0  18FFCA28   [8]  03 0D 30 75 19 FF FF FF
 (1780495928.290677)  can0  18FEE828   [8]  FF FF FF FF FF FF FF FF
 (1780495928.294867)  can0  18F00428   [8]  92 FF FF A1 1A FF FF FF
 (1780495928.299397)  can0  18F00328   [8]  FF FF 1E FF FF FF FF FF
 (1780495928.303703)  can0  18FFA128   [8]  00 00 64 00 15 50 4F 50
 (1780495928.308028)  can0  18FEF328   [8]  8A 25 E3 9B B2 9D D9 7F
 (1780495928.312349)  can0  18FEE828   [8]  FF FF FF FF FF FF FF FF
 (1780495928.316564)  can0  18F00428   [8]  91 FF FF 9F 1A FF FF FF
 (1780495928.320839)  can0  18F00328   [8]  FF FF 1E FF FF FF FF FF
 (1780495928.434650)  can0  18FFA028   [8]  D2 02 21 00 00 F8 FF 02
 (1780495928.438725)  can0  18FFA128   [8]  00 00 64 00 11 50 4F 50
 (1780495928.443013)  can0  18FFA228   [8]  FF FF FF FF E1 03 DF 03
 (1780495928.447255)  can0  18FFA328   [8]  E0 29 01 00 FF FF FF FF
 (1780495928.451518)  can0  18F00428   [8]  92 FF FF 90 1A FF FF FF
 (1780495928.455796)  can0  18F00328   [8]  FF FF 1D FF FF FF FF FF
 (1780495928.460025)  can0  18FFA128   [8]  00 00 64 00 18 50 4F 50
 (1780495928.464323)  can0  18FFCA28   [8]  03 0D 30 75 19 FF FF FF
 (1780495928.622963)  can0  18FFCA28   [8]  03 0D 30 75 19 FF FF FF
 (1780495928.627075)  can0  18FEF328   [8]  8D 25 E3 9B AE 9D D9 7F
 (1780495928.631401)  can0  18FEE828   [8]  FF FF FF FF FF FF FF FF
 (1780495928.635620)  can0  18F00428   [8]  92 FF FF 85 1A FF FF FF
 (1780495928.639951)  can0  18F00328   [8]  FF FF 1D FF FF FF FF FF
 (1780495928.644182)  can0  18FFA028   [8]  D2 02 21 00 00 F8 FF 02
 (1780495928.648511)  can0  18FFA128   [8]  00 00 64 00 13 50 4F 50
 (1780495928.652780)  can0  18FFA228   [8]  FF FF FF FF E1 03 DF 03
 (1780495928.657072)  can0  18FFA328   [8]  E0 29 01 00 FF FF FF FF
 (1780495928.773381)  can0  18FEE828   [8]  FF FF FF FF FF FF FF FF
 (1780495928.777590)  can0  18FFA428   [8]  58 00 00 00 00 00 00 60
 (1780495928.782180)  can0  18FFA528   [8]  00 00 00 00 FF FF FF FF
 (1780495928.786510)  can0  18FFA628   [8]  00 00 00 00 00 00 00 FF
 (1780495928.790756)  can0  18FFA728   [8]  00 00 00 00 20 00 20 00
 (1780495928.794982)  can0  18FFA828   [8]  00 01 00 00 00 00 00 00
 (1780495928.799512)  can0  18FFAA28   [8]  16 00 11 FF FF FF FF FF
 (1780495928.803792)  can0  18FEE828   [8]  FF FF FF FF FF FF FF FF
 (1780495928.807922)  can0  18F00428   [8]  92 FF FF 92 1A FF FF FF
 (1780495928.916640)  can0  18FFCA28   [8]  03 0D 30 75 19 FF FF FF
 (1780495928.920801)  can0  18F00328   [8]  FF FF 1E FF FF FF FF FF
 (1780495928.925155)  can0  18FFA128   [8]  00 00 64 00 17 50 4F 50
 (1780495928.929409)  can0  18FEF328   [8]  8D 25 E3 9B AD 9D D9 7F
 (1780495928.933754)  can0  18FEE828   [8]  FF FF FF FF FF FF FF FF
 (1780495928.937992)  can0  18F00428   [8]  92 FF FF 85 1A FF FF FF
 (1780495928.942237)  can0  18F00328   [8]  FF FF 1E FF FF FF FF FF
 (1780495928.946703)  can0  18FEF728   [8]  FF FF FF FF 2A 02 FF FF
 (1780495928.950978)  can0  18FEFC28   [8]  FF 87 FF FF FF FF FF FF
 (1780495929.063833)  can0  18FEEE28   [8]  78 FF FF FF 20 22 FF FF
 (1780495929.068185)  can0  18FE6828   [8]  47 FF FF FF FF FF FF FF
 (1780495929.072588)  can0  18FFA028   [8]  D2 02 21 00 00 F8 FF 02
 (1780495929.076929)  can0  18FFA128   [8]  00 00 64 00 22 50 4F 50
 (1780495929.081235)  can0  18FFA228   [8]  FF FF FF FF E1 03 DF 03
 (1780495929.085555)  can0  18FFA328   [8]  E0 29 01 00 FF FF FF FF
 (1780495929.090055)  can0  18FFAB28   [8]  00 00 00 00 00 00 00 00
 (1780495929.094386)  can0  18FFAC28   [8]  00 00 FF FF FF FF FF FF
 (1780495929.215742)  can0  18FFCA28   [8]  03 0D 30 75 19 FF FF FF
 (1780495929.219816)  can0  18F00428   [8]  92 FF FF 95 1A FF FF FF
 (1780495929.224038)  can0  18F00328   [8]  FF FF 1E FF FF FF FF FF
 (1780495929.228339)  can0  18FFA128   [8]  00 00 64 00 1F 50 4F 50
 (1780495929.232512)  can0  18FEF328   [8]  8E 25 E3 9B AD 9D D9 7F
 (1780495929.236813)  can0  18FEE828   [8]  FF FF FF FF FF FF FF FF
 (1780495929.241139)  can0  18F00428   [8]  92 FF FF 9A 1A FF FF FF
 (1780495929.245482)  can0  18F00328   [8]  FF FF 1E FF FF FF FF FF
 (1780495929.249762)  can0  18FFA028   [8]  D2 02 21 00 00 F8 FF 02
 (1780495929.370482)  can0  18FEE828   [8]  FF FF FF FF FF FF FF FF
 (1780495929.374697)  can0  18FFA128   [8]  00 00 64 00 19 50 4F 50
 (1780495929.383678)  can0  18FFA228   [8]  FF FF FF FF E1 03 DF 03
 (1780495929.388155)  can0  18FFA328   [8]  E0 29 01 00 FF FF FF FF
 (1780495929.392421)  can0  18FFA428   [8]  58 00 00 00 00 00 00 60
 (1780495929.396664)  can0  18FFA528   [8]  00 00 00 00 FF FF FF FF
 (1780495929.401047)  can0  18FFA628   [8]  00 00 00 00 00 00 00 FF
 (1780495929.405337)  can0  18FFA728   [8]  00 00 00 00 20 00 20 00
 (1780495929.409427)  can0  18FFA828   [8]  00 01 00 00 00 00 00 00
 (1780495929.551221)  can0  18FFCA28   [8]  03 0D 30 75 19 FF FF FF
 (1780495929.560492)  can0  18FFCB28   [8]  0C 25 E3 9B 44 9F D9 7F
 (1780495929.564716)  can0  18FEE828   [8]  FF FF FF FF FF FF FF FF
 (1780495929.569063)  can0  18F00428   [8]  92 FF FF 90 1A FF FF FF
 (1780495929.573614)  can0  18F00328   [8]  FF FF 1E FF FF FF FF FF
 (1780495929.578345)  can0  18FFA128   [8]  00 00 64 00 1B 50 4F 50
 (1780495929.582693)  can0  18FEF328   [8]  8E 25 E3 9B AE 9D D9 7F
 (1780495929.586940)  can0  18FEE828   [8]  FF FF FF FF FF FF FF FF
 (1780495929.591154)  can0  18F00428   [8]  92 FF FF 98 1A FF FF FF
 (1780495929.695538)  can0  18F00328   [8]  FF FF 1E FF FF FF FF FF
 (1780495929.699728)  can0  18FFA028   [8]  D2 02 21 00 00 F8 FF 02
 (1780495929.704023)  can0  18FFA128   [8]  00 00 64 00 25 50 4F 50
 (1780495929.708326)  can0  18FFA228   [8]  FF FF FF FF E1 03 DF 03
 (1780495929.712598)  can0  18FFA328   [8]  E0 29 01 00 FF FF FF FF
 (1780495929.716973)  can0  18F00428   [8]  91 FF FF 93 1A FF FF FF
 (1780495929.721225)  can0  18F00328   [8]  FF FF 1D FF FF FF FF FF
 (1780495929.725548)  can0  18FFA128   [8]  00 00 64 00 1C 50 4F 50
 (1780495929.850990)  can0  18FFCA28   [8]  03 0D 30 75 19 FF FF FF
 (1780495929.855159)  can0  18FEF328   [8]  8E 25 E3 9B AE 9D D9 7F
 (1780495929.859312)  can0  18FEE828   [8]  FF FF FF FF FF FF FF FF
 (1780495929.863707)  can0  18F00428   [8]  92 FF FF 88 1A FF FF FF
 (1780495929.867902)  can0  18F00328   [8]  FF FF 1D FF FF FF FF FF
 (1780495929.872335)  can0  18FFA028   [8]  D2 02 21 00 00 F8 FF 02
 (1780495929.876684)  can0  18FFA128   [8]  00 00 64 00 1E 50 4F 50
 (1780495929.880998)  can0  18FFA228   [8]  FF FF FF FF E1 03 DF 03
 (1780495929.885228)  can0  18FFA328   [8]  E0 29 01 00 FF FF FF FF
 (1780495929.933453)  can0  18FFDC9E   [8]  FF 0F 00 00 00 00 00 00
 (1780495930.001471)  can0  18FEE828   [8]  FF FF FF FF FF FF FF FF
 (1780495930.005654)  can0  18FFA428   [8]  58 00 00 00 00 00 00 60
 (1780495930.009930)  can0  18FFA528   [8]  00 00 00 00 FF FF FF FF
 (1780495930.014197)  can0  18FFA628   [8]  00 00 00 00 00 00 00 FF
 (1780495930.018527)  can0  18FFA728   [8]  00 00 00 00 20 00 20 00
 (1780495930.022874)  can0  18FFA828   [8]  00 01 00 00 00 00 00 00
 (1780495930.027231)  can0  18FFAA28   [8]  16 00 11 FF FF FF FF FF
 (1780495930.031480)  can0  18FEE828   [8]  FF FF FF FF FF FF FF FF
 (1780495930.035679)  can0  18F00428   [8]  92 FF FF 82 1A FF FF FF
 (1780495930.143954)  can0  18FFCA28   [8]  03 0D 30 75 19 FF FF FF
 (1780495930.148093)  can0  18F00328   [8]  FF FF 1D FF FF FF FF FF
 (1780495930.152204)  can0  18FEF728   [8]  FF FF FF FF 2A 02 FF FF
 (1780495930.156671)  can0  18FEFC28   [8]  FF 87 FF FF FF FF FF FF
 (1780495930.160934)  can0  18FEEE28   [8]  78 FF FF FF 20 22 FF FF
 (1780495930.165311)  can0  18FE6828   [8]  47 FF FF FF FF FF FF FF
 (1780495930.169590)  can0  18FFA128   [8]  00 00 64 00 22 50 4F 50
 (1780495930.173914)  can0  18FFAB28   [8]  00 00 00 00 00 00 00 00
 (1780495930.178102)  can0  18FEF328   [8]  8E 25 E3 9B AD 9D D9 7F
 (1780495930.290109)  can0  18FEE828   [8]  FF FF FF FF FF FF FF FF
